T29EC 000:032.778   SEGGER J-Link V7.94e Log File
T29EC 000:032.857   DLL Compiled: Jan 15 2024 15:13:38
T29EC 000:032.861   Logging started @ 2024-03-30 22:30
T29EC 000:032.864   Process: C:\Keil_v5\UV4\UV4.exe
T29EC 000:032.869 - 32.868ms
T29EC 000:032.875 JLINK_SetWarnOutHandler(...)
T29EC 000:032.878 - 0.004ms
T29EC 000:032.883 JLINK_OpenEx(...)
T29EC 000:037.876   Firmware: J-Link V9 compiled May  7 2021 16:26:12
T29EC 000:038.703   Firmware: J-Link V9 compiled May  7 2021 16:26:12
T29EC 000:038.816   Decompressing FW timestamp took 104 us
T29EC 000:044.690   Hardware: V9.50
T29EC 000:044.700   S/N: 69532707
T29EC 000:044.704   OEM: SEGGER
T29EC 000:044.709   Feature(s): JFlash, GDB, RDI, FlashBP, FlashDL
T29EC 000:045.375   Bootloader: (Could not read)
T29EC 000:046.021   TELNET listener socket opened on port 19021
T29EC 000:046.112   WEBSRV WEBSRV_Init(): Starting webserver thread(s)
T29EC 000:046.149   WEBSRV Failed to put socket into listener state (port 19080)
T29EC 000:046.198   WEBSRV Webserver running on local port 19081
T29EC 000:046.265   Looking for J-Link GUI Server exe at: C:\Keil_v5\ARM\Segger\JLinkGUIServer.exe
T29EC 000:046.295   Looking for J-Link GUI Server exe at: C:\Program Files\SEGGER\JLink_V794e\JLinkGUIServer.exe
T29EC 000:046.315   Forking J-Link GUI Server: C:\Program Files\SEGGER\JLink_V794e\JLinkGUIServer.exe
T29EC 000:047.859   J-Link GUI Server info: "J-Link GUI server V7.94e "
T29EC 000:048.185 - 15.298ms returns "O.K."
T29EC 000:048.199 JLINK_SetErrorOutHandler(...)
T29EC 000:048.202 - 0.003ms
T29EC 000:048.216 JLINK_ExecCommand("ProjectFile = "D:\agv_chassis\AGV_CHASSIS\CHASSIS\MDK-ARM\JLinkSettings.ini"", ...). 
T29EC 000:061.755   Ref file found at: C:\Keil_v5\ARM\Segger\JLinkDevices.ref
T29EC 000:061.813   REF file references invalid XML file: C:\Program Files\SEGGER\JLink_V794e\JLinkDevices.xml
T29EC 000:062.628 - 14.410ms returns 0x00
T29EC 000:062.670 JLINK_ExecCommand("Device = STM32F407IGHx", ...). 
T29EC 000:063.043   Device "STM32F407IG" selected.
T29EC 000:063.247 - 0.571ms returns 0x00
T29EC 000:063.256 JLINK_ExecCommand("DisableConnectionTimeout", ...). 
T29EC 000:063.262 - 0.001ms returns 0x01
T29EC 000:063.266 JLINK_GetHardwareVersion()
T29EC 000:063.271 - 0.003ms returns 95000
T29EC 000:063.275 JLINK_GetDLLVersion()
T29EC 000:063.279 - 0.003ms returns 79405
T29EC 000:063.283 JLINK_GetOEMString(...)
T29EC 000:063.286 JLINK_GetFirmwareString(...)
T29EC 000:063.290 - 0.003ms
T29EC 000:063.308 JLINK_GetDLLVersion()
T29EC 000:063.311 - 0.003ms returns 79405
T29EC 000:063.315 JLINK_GetCompileDateTime()
T29EC 000:063.318 - 0.003ms
T29EC 000:063.326 JLINK_GetFirmwareString(...)
T29EC 000:063.329 - 0.003ms
T29EC 000:063.337 JLINK_GetHardwareVersion()
T29EC 000:063.340 - 0.003ms returns 95000
T29EC 000:063.346 JLINK_GetSN()
T29EC 000:063.350 - 0.003ms returns 69532707
T29EC 000:063.355 JLINK_GetOEMString(...)
T29EC 000:063.365 JLINK_TIF_Select(JLINKARM_TIF_SWD)
T29EC 000:064.619 - 1.253ms returns 0x00
T29EC 000:064.629 JLINK_HasError()
T29EC 000:064.639 JLINK_SetSpeed(5000)
T29EC 000:064.815 - 0.176ms
T29EC 000:064.820 JLINK_GetId()
T29EC 000:065.187   InitTarget() start
T29EC 000:065.193    J-Link Script File: Executing InitTarget()
T29EC 000:065.546   SWD selected. Executing JTAG -> SWD switching sequence.
T29EC 000:067.130   DAP initialized successfully.
T29EC 000:071.800   InitTarget() end - Took 6.60ms
T29EC 000:072.469   Found SW-DP with ID 0x2BA01477
T29EC 000:074.587   DPIDR: 0x2BA01477
T29EC 000:074.598   CoreSight SoC-400 or earlier
T29EC 000:074.606   Scanning AP map to find all available APs
T29EC 000:075.089   AP[1]: Stopped AP scan as end of AP map has been reached
T29EC 000:075.098   AP[0]: AHB-AP (IDR: 0x24770011)
T29EC 000:075.105   Iterating through AP map to find AHB-AP to use
T29EC 000:076.030   AP[0]: Core found
T29EC 000:076.038   AP[0]: AHB-AP ROM base: 0xE00FF000
T29EC 000:076.456   CPUID register: 0x410FC241. Implementer code: 0x41 (ARM)
T29EC 000:076.464   Found Cortex-M4 r0p1, Little endian.
T29EC 000:077.060   -- Max. mem block: 0x00010C40
T29EC 000:077.460   CPU_ReadMem(4 bytes @ 0xE000EDF0)
T29EC 000:077.721   CPU_ReadMem(4 bytes @ 0xE0002000)
T29EC 000:077.975   FPUnit: 6 code (BP) slots and 2 literal slots
T29EC 000:077.980   CPU_ReadMem(4 bytes @ 0xE000EDFC)
T29EC 000:078.268   CPU_WriteMem(4 bytes @ 0xE000EDFC)
T29EC 000:078.515   CPU_ReadMem(4 bytes @ 0xE0001000)
T29EC 000:078.781   CPU_WriteMem(4 bytes @ 0xE0001000)
T29EC 000:079.056   CPU_ReadMem(4 bytes @ 0xE000ED88)
T29EC 000:079.324   CPU_WriteMem(4 bytes @ 0xE000ED88)
T29EC 000:079.572   CPU_ReadMem(4 bytes @ 0xE000ED88)
T29EC 000:079.823   CPU_WriteMem(4 bytes @ 0xE000ED88)
T29EC 000:080.071   CoreSight components:
T29EC 000:080.079   ROMTbl[0] @ E00FF000
T29EC 000:080.083   CPU_ReadMem(64 bytes @ 0xE00FF000)
T29EC 000:080.688   CPU_ReadMem(32 bytes @ 0xE000EFE0)
T29EC 000:081.077   [0][0]: E000E000 CID B105E00D PID 000BB00C SCS-M7
T29EC 000:081.082   CPU_ReadMem(32 bytes @ 0xE0001FE0)
T29EC 000:081.476   [0][1]: E0001000 CID B105E00D PID 003BB002 DWT
T29EC 000:081.481   CPU_ReadMem(32 bytes @ 0xE0002FE0)
T29EC 000:081.869   [0][2]: E0002000 CID B105E00D PID 002BB003 FPB
T29EC 000:081.874   CPU_ReadMem(32 bytes @ 0xE0000FE0)
T29EC 000:082.348   [0][3]: E0000000 CID B105E00D PID 003BB001 ITM
T29EC 000:082.353   CPU_ReadMem(32 bytes @ 0xE0040FE0)
T29EC 000:082.742   [0][4]: E0040000 CID B105900D PID 000BB9A1 TPIU
T29EC 000:082.747   CPU_ReadMem(32 bytes @ 0xE0041FE0)
T29EC 000:083.129   [0][5]: E0041000 CID B105900D PID 000BB925 ETM
T29EC 000:083.383 - 18.561ms returns 0x2BA01477
T29EC 000:083.390 JLINK_GetDLLVersion()
T29EC 000:083.393 - 0.003ms returns 79405
T29EC 000:083.398 JLINK_CORE_GetFound()
T29EC 000:083.401 - 0.003ms returns 0xE0000FF
T29EC 000:083.426 JLINK_GetDebugInfo(0x100 = JLINKARM_ROM_TABLE_ADDR_INDEX)
T29EC 000:083.429   Value=0xE00FF000
T29EC 000:083.434 - 0.008ms returns 0
T29EC 000:083.441 JLINK_GetDebugInfo(0x100 = JLINKARM_ROM_TABLE_ADDR_INDEX)
T29EC 000:083.444   Value=0xE00FF000
T29EC 000:083.448 - 0.007ms returns 0
T29EC 000:083.452 JLINK_GetDebugInfo(0x101 = JLINKARM_DEBUG_INFO_ETM_ADDR_INDEX)
T29EC 000:083.455   Value=0xE0041000
T29EC 000:083.459 - 0.007ms returns 0
T29EC 000:083.470 JLINK_GetDebugInfo(0x102 = JLINKARM_DEBUG_INFO_MTB_ADDR_INDEX)
T29EC 000:083.472   Value=0x00000000
T29EC 000:083.477 - 0.014ms returns 0
T29EC 000:083.480 JLINK_GetDebugInfo(0x103 = JLINKARM_DEBUG_INFO_TPIU_ADDR_INDEX)
T29EC 000:083.483   Value=0xE0040000
T29EC 000:083.487 - 0.007ms returns 0
T29EC 000:083.491 JLINK_GetDebugInfo(0x104 = JLINKARM_DEBUG_INFO_ITM_ADDR_INDEX)
T29EC 000:083.494   Value=0xE0000000
T29EC 000:083.498 - 0.007ms returns 0
T29EC 000:083.502 JLINK_GetDebugInfo(0x105 = JLINKARM_DEBUG_INFO_DWT_ADDR_INDEX)
T29EC 000:083.505   Value=0xE0001000
T29EC 000:083.509 - 0.007ms returns 0
T29EC 000:083.512 JLINK_GetDebugInfo(0x106 = JLINKARM_DEBUG_INFO_FPB_ADDR_INDEX)
T29EC 000:083.515   Value=0xE0002000
T29EC 000:083.519 - 0.007ms returns 0
T29EC 000:083.523 JLINK_GetDebugInfo(0x107 = JLINKARM_DEBUG_INFO_NVIC_ADDR_INDEX)
T29EC 000:083.526   Value=0xE000E000
T29EC 000:083.530 - 0.007ms returns 0
T29EC 000:083.534 JLINK_GetDebugInfo(0x10C = JLINKARM_DEBUG_INFO_DBG_ADDR_INDEX)
T29EC 000:083.537   Value=0xE000EDF0
T29EC 000:083.541 - 0.007ms returns 0
T29EC 000:083.546 JLINK_ReadMemU32(0xE000EF40, 0x1 Items)
T29EC 000:083.559   CPU_ReadMem(4 bytes @ 0xE000EF40)
T29EC 000:083.825   Data:  21 00 11 10
T29EC 000:083.830 - 0.283ms returns 1 (0x1)
T29EC 000:083.834 JLINK_ReadMemU32(0xE000EF44, 0x1 Items)
T29EC 000:083.838   CPU_ReadMem(4 bytes @ 0xE000EF44)
T29EC 000:084.144   Data:  11 00 00 11
T29EC 000:084.164 - 0.330ms returns 1 (0x1)
T29EC 000:084.170 JLINK_ReadMemU32(0xE000ED00, 0x1 Items)
T29EC 000:084.179   CPU_ReadMem(4 bytes @ 0xE000ED00)
T29EC 000:084.488   Data:  41 C2 0F 41
T29EC 000:084.514   Debug reg: CPUID
T29EC 000:084.519 - 0.348ms returns 1 (0x1)
T29EC 000:084.524 JLINK_HasError()
T29EC 000:084.528 JLINK_SetResetType(JLINKARM_CM3_RESET_TYPE_NORMAL)
T29EC 000:084.533 - 0.005ms returns JLINKARM_CM3_RESET_TYPE_NORMAL
T29EC 000:084.538 JLINK_Reset()
T29EC 000:084.547   CPU is running
T29EC 000:084.551   CPU_WriteMem(4 bytes @ 0xE000EDF0)
T29EC 000:084.838   CPU is running
T29EC 000:084.843   CPU_WriteMem(4 bytes @ 0xE000EDFC)
T29EC 000:085.100   Reset: Halt core after reset via DEMCR.VC_CORERESET.
T29EC 000:085.562   Reset: Reset device via AIRCR.SYSRESETREQ.
T29EC 000:085.567   CPU is running
T29EC 000:085.571   CPU_WriteMem(4 bytes @ 0xE000ED0C)
T29EC 000:138.463   CPU_ReadMem(4 bytes @ 0xE000EDF0)
T29EC 000:138.711   CPU_ReadMem(4 bytes @ 0xE000EDF0)
T29EC 000:140.776   CPU_WriteMem(4 bytes @ 0xE000EDFC)
T29EC 000:146.444   CPU_ReadMem(4 bytes @ 0xE000EDF0)
T29EC 000:148.608   CPU_WriteMem(4 bytes @ 0xE0002000)
T29EC 000:148.868   CPU_ReadMem(4 bytes @ 0xE000EDFC)
T29EC 000:149.117   CPU_ReadMem(4 bytes @ 0xE0001000)
T29EC 000:149.448 - 64.907ms
T29EC 000:149.460 JLINK_HasError()
T29EC 000:149.466 JLINK_ReadReg(R15 (PC))
T29EC 000:149.472 - 0.007ms returns 0x08000268
T29EC 000:149.476 JLINK_ReadReg(XPSR)
T29EC 000:149.479 - 0.003ms returns 0x01000000
T29EC 000:149.484 JLINK_Halt()
T29EC 000:149.487 - 0.003ms returns 0x00
T29EC 000:149.515 JLINK_IsHalted()
T29EC 000:149.518 - 0.003ms returns TRUE
T29EC 000:149.522 JLINK_ReadMemU32(0xE000EDF0, 0x1 Items)
T29EC 000:149.529   CPU_ReadMem(4 bytes @ 0xE000EDF0)
T29EC 000:149.796   Data:  03 00 03 00
T29EC 000:149.801   Debug reg: DHCSR
T29EC 000:149.806 - 0.283ms returns 1 (0x1)
T29EC 000:149.811 JLINK_WriteU32_64(0xE000EDF0, 0xA05F0003)
T29EC 000:149.814   Debug reg: DHCSR
T29EC 000:150.045   CPU_WriteMem(4 bytes @ 0xE000EDF0)
T29EC 000:150.375 - 0.563ms returns 0 (0x00000000)
T29EC 000:150.381 JLINK_WriteU32_64(0xE000EDFC, 0x01000000)
T29EC 000:150.384   Debug reg: DEMCR
T29EC 000:150.390   CPU_WriteMem(4 bytes @ 0xE000EDFC)
T29EC 000:150.676 - 0.295ms returns 0 (0x00000000)
T29EC 000:150.709 JLINK_GetHWStatus(...)
T29EC 000:150.919 - 0.211ms returns 0
T29EC 000:150.933 JLINK_GetNumBPUnits(Type = 0xFFFFFF00)
T29EC 000:150.936 - 0.003ms returns 0x06
T29EC 000:150.939 JLINK_GetNumBPUnits(Type = 0xF0)
T29EC 000:150.942 - 0.002ms returns 0x2000
T29EC 000:150.946 JLINK_GetNumWPUnits()
T29EC 000:150.949 - 0.002ms returns 4
T29EC 000:150.958 JLINK_GetSpeed()
T29EC 000:150.961 - 0.002ms returns 4000
T29EC 000:150.968 JLINK_ReadMemU32(0xE000E004, 0x1 Items)
T29EC 000:150.973   CPU_ReadMem(4 bytes @ 0xE000E004)
T29EC 000:151.268   Data:  02 00 00 00
T29EC 000:151.272 - 0.304ms returns 1 (0x1)
T29EC 000:151.276 JLINK_ReadMemU32(0xE000E004, 0x1 Items)
T29EC 000:151.283   CPU_ReadMem(4 bytes @ 0xE000E004)
T29EC 000:151.517   Data:  02 00 00 00
T29EC 000:151.522 - 0.245ms returns 1 (0x1)
T29EC 000:151.526 JLINK_WriteMem(0xE0001000, 0x1C Bytes, ...)
T29EC 000:151.529   Data:  01 00 00 00 00 00 00 00 00 00 00 00 00 00 00 00 ...
T29EC 000:151.537   CPU_WriteMem(28 bytes @ 0xE0001000)
T29EC 000:151.874 - 0.347ms returns 0x1C
T29EC 000:151.878 JLINK_ReadMem(0xE0001000, 0x1C Bytes, ...)
T29EC 000:151.883   CPU_ReadMem(28 bytes @ 0xE0001000)
T29EC 000:152.305   Data:  01 00 00 40 00 00 00 00 00 00 00 00 00 00 00 00 ...
T29EC 000:152.322 - 0.443ms returns 0
T29EC 000:152.326 JLINK_HasError()
T29EC 000:152.330 JLINK_ReadReg(R15 (PC))
T29EC 000:152.334 - 0.004ms returns 0x08000268
T29EC 000:152.338 JLINK_ReadReg(XPSR)
T29EC 000:152.341 - 0.003ms returns 0x01000000
T29EC 000:241.282 JLINK_HasError()
T29EC 000:241.302 JLINK_SetResetType(JLINKARM_CM3_RESET_TYPE_NORMAL)
T29EC 000:241.307 - 0.005ms returns JLINKARM_CM3_RESET_TYPE_NORMAL
T29EC 000:241.311 JLINK_Reset()
T29EC 000:241.329   CPU_WriteMem(4 bytes @ 0xE000EDF0)
T29EC 000:241.704   CPU_WriteMem(4 bytes @ 0xE000EDFC)
T29EC 000:242.050   Reset: Halt core after reset via DEMCR.VC_CORERESET.
T29EC 000:242.460   Reset: Reset device via AIRCR.SYSRESETREQ.
T29EC 000:242.466   CPU_WriteMem(4 bytes @ 0xE000ED0C)
T29EC 000:296.005   CPU_ReadMem(4 bytes @ 0xE000EDF0)
T29EC 000:296.267   CPU_ReadMem(4 bytes @ 0xE000EDF0)
T29EC 000:296.514   CPU_WriteMem(4 bytes @ 0xE000EDFC)
T29EC 000:302.101   CPU_ReadMem(4 bytes @ 0xE000EDF0)
T29EC 000:304.372   CPU_WriteMem(4 bytes @ 0xE0002000)
T29EC 000:304.678   CPU_ReadMem(4 bytes @ 0xE000EDFC)
T29EC 000:304.945   CPU_ReadMem(4 bytes @ 0xE0001000)
T29EC 000:305.304 - 63.991ms
T29EC 000:305.344 JLINK_HasError()
T29EC 000:305.350 JLINK_ReadReg(R15 (PC))
T29EC 000:305.355 - 0.005ms returns 0x08000268
T29EC 000:305.359 JLINK_ReadReg(XPSR)
T29EC 000:305.362 - 0.003ms returns 0x01000000
T29EC 000:305.652 JLINK_ReadMem(0x08000188, 0x3C Bytes, ...)
T29EC 000:305.663   CPU_ReadMem(128 bytes @ 0x08000180)
T29EC 000:306.502    -- Updating C cache (128 bytes @ 0x08000180)
T29EC 000:306.508    -- Read from C cache (60 bytes @ 0x08000188)
T29EC 000:306.514   Data:  00 F0 02 F8 00 F0 5C F8 0A A0 90 E8 00 0C 82 44 ...
T29EC 000:306.518 - 0.866ms returns 0
T29EC 000:306.527 JLINK_ReadMem(0x080001C4, 0x3C Bytes, ...)
T29EC 000:306.531    -- Read from C cache (60 bytes @ 0x080001C4)
T29EC 000:306.535   Data:  0A 44 4F F0 00 0C 10 F8 01 3B 13 F0 07 04 08 BF ...
T29EC 000:306.540 - 0.012ms returns 0
T29EC 000:306.546 JLINK_ReadMem(0x08000200, 0x3C Bytes, ...)
T29EC 000:306.550   CPU_ReadMem(64 bytes @ 0x08000200)
T29EC 000:307.088    -- Updating C cache (64 bytes @ 0x08000200)
T29EC 000:307.092    -- Read from C cache (60 bytes @ 0x08000200)
T29EC 000:307.097   Data:  6D 1E 58 BF 01 F8 01 CB FA D5 05 E0 14 F8 01 6B ...
T29EC 000:307.101 - 0.555ms returns 0
T29EC 000:307.109 JLINK_ReadMem(0x0800023C, 0x3C Bytes, ...)
T29EC 000:307.113   CPU_ReadMem(64 bytes @ 0x08000240)
T29EC 000:307.671    -- Updating C cache (64 bytes @ 0x08000240)
T29EC 000:307.676    -- Read from C cache (60 bytes @ 0x0800023C)
T29EC 000:307.681   Data:  1F B5 08 F0 82 F8 1F BD 10 B5 10 BD 00 F0 A1 F9 ...
T29EC 000:307.688 - 0.579ms returns 0
T5EF8 001:540.048 JLINK_HasError()
T5EF8 001:540.077 JLINK_SetBPEx(Addr = 0x08006FA4, Type = 0xFFFFFFF2)
T5EF8 001:540.088 - 0.011ms returns 0x00000001
T5EF8 001:540.092 JLINK_HasError()
T5EF8 001:540.096 JLINK_SetBPEx(Addr = 0x08002124, Type = 0xFFFFFFF2)
T5EF8 001:540.100 - 0.003ms returns 0x00000002
T5EF8 001:540.103 JLINK_HasError()
T5EF8 001:540.107 JLINK_SetBPEx(Addr = 0x0800703C, Type = 0xFFFFFFF2)
T5EF8 001:540.111 - 0.003ms returns 0x00000003
T5EF8 001:540.114 JLINK_HasError()
T5EF8 001:540.118 JLINK_SetBPEx(Addr = 0x08005658, Type = 0xFFFFFFF2)
T5EF8 001:540.121 - 0.003ms returns 0x00000004
T5EF8 001:540.125 JLINK_HasError()
T5EF8 001:540.129 JLINK_SetBPEx(Addr = 0x08004712, Type = 0xFFFFFFF2)
T5EF8 001:540.132 - 0.003ms returns 0x00000005
T5EF8 001:540.136 JLINK_HasError()
T5EF8 001:540.139 JLINK_HasError()
T5EF8 001:540.144 JLINK_Go()
T5EF8 001:540.497   CPU_WriteMem(4 bytes @ 0xE0002000)
T5EF8 001:540.915   CPU_WriteMem(4 bytes @ 0xE0002000)
T5EF8 001:541.255   CPU_WriteMem(4 bytes @ 0xE0002000)
T5EF8 001:541.528   CPU_WriteMem(4 bytes @ 0xE0002000)
T5EF8 001:541.812   CPU_WriteMem(4 bytes @ 0xE0002000)
T5EF8 001:542.099   CPU_ReadMem(4 bytes @ 0xE0001000)
T5EF8 001:542.345   CPU_WriteMem(4 bytes @ 0xE0002008)
T5EF8 001:542.370   CPU_WriteMem(4 bytes @ 0xE000200C)
T5EF8 001:542.375   CPU_WriteMem(4 bytes @ 0xE0002010)
T5EF8 001:542.380   CPU_WriteMem(4 bytes @ 0xE0002014)
T5EF8 001:542.385   CPU_WriteMem(4 bytes @ 0xE0002018)
T5EF8 001:542.389   CPU_WriteMem(4 bytes @ 0xE000201C)
T5EF8 001:543.438   CPU_WriteMem(4 bytes @ 0xE0001004)
T5EF8 001:544.220   Memory map 'after startup completion point' is active
T5EF8 001:544.230 - 4.086ms
T5EF8 001:644.786 JLINK_HasError()
T5EF8 001:644.818 JLINK_IsHalted()
T5EF8 001:646.934 - 2.115ms returns TRUE
T5EF8 001:646.940 JLINK_HasError()
T5EF8 001:646.944 JLINK_Halt()
T5EF8 001:646.947 - 0.003ms returns 0x00
T5EF8 001:646.951 JLINK_IsHalted()
T5EF8 001:646.953 - 0.002ms returns TRUE
T5EF8 001:646.957 JLINK_IsHalted()
T5EF8 001:646.960 - 0.002ms returns TRUE
T5EF8 001:646.963 JLINK_IsHalted()
T5EF8 001:646.966 - 0.002ms returns TRUE
T5EF8 001:646.970 JLINK_HasError()
T5EF8 001:647.013 JLINK_ReadReg(R15 (PC))
T5EF8 001:647.020 - 0.007ms returns 0x08006FA4
T5EF8 001:647.024 JLINK_ReadReg(XPSR)
T5EF8 001:647.027 - 0.003ms returns 0x21000000
T5EF8 001:647.032 JLINK_HasError()
T5EF8 001:647.035 JLINK_ClrBPEx(BPHandle = 0x00000001)
T5EF8 001:647.040 - 0.004ms returns 0x00
T5EF8 001:647.043 JLINK_HasError()
T5EF8 001:647.046 JLINK_ClrBPEx(BPHandle = 0x00000002)
T5EF8 001:647.050 - 0.003ms returns 0x00
T5EF8 001:647.053 JLINK_HasError()
T5EF8 001:647.056 JLINK_ClrBPEx(BPHandle = 0x00000003)
T5EF8 001:647.060 - 0.003ms returns 0x00
T5EF8 001:647.063 JLINK_HasError()
T5EF8 001:647.067 JLINK_ClrBPEx(BPHandle = 0x00000004)
T5EF8 001:647.070 - 0.003ms returns 0x00
T5EF8 001:647.073 JLINK_HasError()
T5EF8 001:647.077 JLINK_ClrBPEx(BPHandle = 0x00000005)
T5EF8 001:647.080 - 0.003ms returns 0x00
T5EF8 001:647.083 JLINK_HasError()
T5EF8 001:647.087 JLINK_HasError()
T5EF8 001:647.091 JLINK_ReadMemU32(0xE000ED30, 0x1 Items)
T5EF8 001:647.100   CPU_ReadMem(4 bytes @ 0xE000ED30)
T5EF8 001:647.503   Data:  02 00 00 00
T5EF8 001:647.508 - 0.417ms returns 1 (0x1)
T5EF8 001:647.512 JLINK_ReadMemU32(0xE0001028, 0x1 Items)
T5EF8 001:647.517   CPU_ReadMem(4 bytes @ 0xE0001028)
T5EF8 001:647.820   Data:  00 00 00 00
T5EF8 001:647.825   Debug reg: DWT_FUNC[0]
T5EF8 001:647.829 - 0.316ms returns 1 (0x1)
T5EF8 001:647.833 JLINK_ReadMemU32(0xE0001038, 0x1 Items)
T5EF8 001:647.837   CPU_ReadMem(4 bytes @ 0xE0001038)
T5EF8 001:648.297   Data:  00 02 00 00
T5EF8 001:648.309   Debug reg: DWT_FUNC[1]
T5EF8 001:648.314 - 0.480ms returns 1 (0x1)
T5EF8 001:648.320 JLINK_ReadMemU32(0xE0001048, 0x1 Items)
T5EF8 001:648.330   CPU_ReadMem(4 bytes @ 0xE0001048)
T5EF8 001:648.675   Data:  00 00 00 00
T5EF8 001:648.686   Debug reg: DWT_FUNC[2]
T5EF8 001:648.691 - 0.371ms returns 1 (0x1)
T5EF8 001:648.697 JLINK_ReadMemU32(0xE0001058, 0x1 Items)
T5EF8 001:648.704   CPU_ReadMem(4 bytes @ 0xE0001058)
T5EF8 001:648.972   Data:  00 00 00 00
T5EF8 001:648.977   Debug reg: DWT_FUNC[3]
T5EF8 001:648.981 - 0.284ms returns 1 (0x1)
T5EF8 001:649.010 JLINK_HasError()
T5EF8 001:649.015 JLINK_ReadReg(R0)
T5EF8 001:649.019 - 0.004ms returns 0x200012A0
T5EF8 001:649.022 JLINK_ReadReg(R1)
T5EF8 001:649.025 - 0.003ms returns 0x200014A0
T5EF8 001:649.029 JLINK_ReadReg(R2)
T5EF8 001:649.032 - 0.003ms returns 0x200014A0
T5EF8 001:649.036 JLINK_ReadReg(R3)
T5EF8 001:649.039 - 0.003ms returns 0x200014A0
T5EF8 001:649.043 JLINK_ReadReg(R4)
T5EF8 001:649.046 - 0.003ms returns 0x00000000
T5EF8 001:649.049 JLINK_ReadReg(R5)
T5EF8 001:649.052 - 0.003ms returns 0x20001240
T5EF8 001:649.056 JLINK_ReadReg(R6)
T5EF8 001:649.059 - 0.003ms returns 0x00000000
T5EF8 001:649.063 JLINK_ReadReg(R7)
T5EF8 001:649.066 - 0.003ms returns 0x00000000
T5EF8 001:649.072 JLINK_ReadReg(R8)
T5EF8 001:649.076 - 0.006ms returns 0x00000000
T5EF8 001:649.079 JLINK_ReadReg(R9)
T5EF8 001:649.082 - 0.003ms returns 0x00000000
T5EF8 001:649.086 JLINK_ReadReg(R10)
T5EF8 001:649.089 - 0.003ms returns 0x08008860
T5EF8 001:649.092 JLINK_ReadReg(R11)
T5EF8 001:649.096 - 0.003ms returns 0x00000000
T5EF8 001:649.099 JLINK_ReadReg(R12)
T5EF8 001:649.102 - 0.003ms returns 0x20001280
T5EF8 001:649.106 JLINK_ReadReg(R13 (SP))
T5EF8 001:649.110 - 0.003ms returns 0x200018A0
T5EF8 001:649.113 JLINK_ReadReg(R14)
T5EF8 001:649.116 - 0.003ms returns 0x08000257
T5EF8 001:649.120 JLINK_ReadReg(R15 (PC))
T5EF8 001:649.123 - 0.003ms returns 0x08006FA4
T5EF8 001:649.126 JLINK_ReadReg(XPSR)
T5EF8 001:649.130 - 0.003ms returns 0x21000000
T5EF8 001:649.133 JLINK_ReadReg(MSP)
T5EF8 001:649.136 - 0.003ms returns 0x200018A0
T5EF8 001:649.140 JLINK_ReadReg(PSP)
T5EF8 001:649.143 - 0.003ms returns 0x00000000
T5EF8 001:649.146 JLINK_ReadReg(CFBP)
T5EF8 001:649.149 - 0.003ms returns 0x04000000
T5EF8 001:649.154 JLINK_ReadReg(FPSCR)
T5EF8 001:651.995 - 2.841ms returns 0x03000000
T5EF8 001:652.003 JLINK_ReadReg(FPS0)
T5EF8 001:652.007 - 0.004ms returns 0x00000000
T5EF8 001:652.010 JLINK_ReadReg(FPS1)
T5EF8 001:652.013 - 0.003ms returns 0x00000000
T5EF8 001:652.019 JLINK_ReadReg(FPS2)
T5EF8 001:652.023 - 0.004ms returns 0x00000000
T5EF8 001:652.027 JLINK_ReadReg(FPS3)
T5EF8 001:652.030 - 0.003ms returns 0x00000000
T5EF8 001:652.034 JLINK_ReadReg(FPS4)
T5EF8 001:652.037 - 0.003ms returns 0x00000000
T5EF8 001:652.040 JLINK_ReadReg(FPS5)
T5EF8 001:652.044 - 0.003ms returns 0x00000000
T5EF8 001:652.047 JLINK_ReadReg(FPS6)
T5EF8 001:652.050 - 0.003ms returns 0x00000000
T5EF8 001:652.054 JLINK_ReadReg(FPS7)
T5EF8 001:652.057 - 0.003ms returns 0x00000000
T5EF8 001:652.061 JLINK_ReadReg(FPS8)
T5EF8 001:652.064 - 0.003ms returns 0x00000000
T5EF8 001:652.067 JLINK_ReadReg(FPS9)
T5EF8 001:652.070 - 0.003ms returns 0x00000000
T5EF8 001:652.074 JLINK_ReadReg(FPS10)
T5EF8 001:652.077 - 0.003ms returns 0x00000000
T5EF8 001:652.080 JLINK_ReadReg(FPS11)
T5EF8 001:652.083 - 0.003ms returns 0x00000000
T5EF8 001:652.087 JLINK_ReadReg(FPS12)
T5EF8 001:652.090 - 0.003ms returns 0x00000000
T5EF8 001:652.094 JLINK_ReadReg(FPS13)
T5EF8 001:652.097 - 0.003ms returns 0x00000000
T5EF8 001:652.100 JLINK_ReadReg(FPS14)
T5EF8 001:652.103 - 0.003ms returns 0x00000000
T5EF8 001:652.107 JLINK_ReadReg(FPS15)
T5EF8 001:652.110 - 0.003ms returns 0x00000000
T5EF8 001:652.113 JLINK_ReadReg(FPS16)
T5EF8 001:652.116 - 0.003ms returns 0x00000000
T5EF8 001:652.120 JLINK_ReadReg(FPS17)
T5EF8 001:652.123 - 0.003ms returns 0x00000000
T5EF8 001:652.126 JLINK_ReadReg(FPS18)
T5EF8 001:652.130 - 0.003ms returns 0x00000000
T5EF8 001:652.133 JLINK_ReadReg(FPS19)
T5EF8 001:652.136 - 0.003ms returns 0x00000000
T5EF8 001:652.141 JLINK_ReadReg(FPS20)
T5EF8 001:652.144 - 0.003ms returns 0x00000000
T5EF8 001:652.166 JLINK_ReadReg(FPS21)
T5EF8 001:652.170 - 0.003ms returns 0x00000000
T5EF8 001:652.173 JLINK_ReadReg(FPS22)
T5EF8 001:652.176 - 0.003ms returns 0x00000000
T5EF8 001:652.180 JLINK_ReadReg(FPS23)
T5EF8 001:652.183 - 0.003ms returns 0x00000000
T5EF8 001:652.186 JLINK_ReadReg(FPS24)
T5EF8 001:652.190 - 0.003ms returns 0x00000000
T5EF8 001:652.193 JLINK_ReadReg(FPS25)
T5EF8 001:652.197 - 0.004ms returns 0x00000000
T5EF8 001:652.201 JLINK_ReadReg(FPS26)
T5EF8 001:652.204 - 0.003ms returns 0x00000000
T5EF8 001:652.207 JLINK_ReadReg(FPS27)
T5EF8 001:652.210 - 0.003ms returns 0x00000000
T5EF8 001:652.213 JLINK_ReadReg(FPS28)
T5EF8 001:652.217 - 0.003ms returns 0x00000000
T5EF8 001:652.220 JLINK_ReadReg(FPS29)
T5EF8 001:652.223 - 0.003ms returns 0x00000000
T5EF8 001:652.226 JLINK_ReadReg(FPS30)
T5EF8 001:652.229 - 0.003ms returns 0x00000000
T5EF8 001:652.233 JLINK_ReadReg(FPS31)
T5EF8 001:652.236 - 0.003ms returns 0x00000000
T29EC 001:657.230 JLINK_ReadMem(0x08006EA4, 0x3C Bytes, ...)
T29EC 001:657.244   CPU_ReadMem(128 bytes @ 0x08006E80)
T29EC 001:658.088    -- Updating C cache (128 bytes @ 0x08006E80)
T29EC 001:658.099    -- Read from C cache (60 bytes @ 0x08006EA4)
T29EC 001:658.105   Data:  02 B0 51 EC 10 0B 70 47 70 B5 04 46 00 26 FE F7 ...
T29EC 001:658.109 - 0.880ms returns 0
T29EC 001:658.122 JLINK_ReadMem(0x08006EE0, 0x3C Bytes, ...)
T29EC 001:658.128   CPU_ReadMem(64 bytes @ 0x08006F00)
T29EC 001:658.673    -- Updating C cache (64 bytes @ 0x08006F00)
T29EC 001:658.678    -- Read from C cache (60 bytes @ 0x08006EE0)
T29EC 001:658.683   Data:  C7 FC 30 46 70 BD 03 46 19 60 88 18 40 1E 58 60 ...
T29EC 001:658.688 - 0.565ms returns 0
T29EC 001:658.695 JLINK_ReadMem(0x08006F1C, 0x3C Bytes, ...)
T29EC 001:658.699   CPU_ReadMem(64 bytes @ 0x08006F40)
T29EC 001:659.257    -- Updating C cache (64 bytes @ 0x08006F40)
T29EC 001:659.261    -- Read from C cache (60 bytes @ 0x08006F1C)
T29EC 001:659.266   Data:  61 68 60 69 88 42 01 D9 20 68 60 61 A0 68 A8 42 ...
T29EC 001:659.271 - 0.576ms returns 0
T29EC 001:659.278 JLINK_ReadMem(0x08006F58, 0x3C Bytes, ...)
T29EC 001:659.282   CPU_ReadMem(64 bytes @ 0x08006F80)
T29EC 001:659.843    -- Updating C cache (64 bytes @ 0x08006F80)
T29EC 001:659.851    -- Read from C cache (60 bytes @ 0x08006F58)
T29EC 001:659.856   Data:  06 09 32 46 41 46 60 69 F9 F7 3D FA 08 EB 06 01 ...
T29EC 001:659.867 - 0.584ms returns 0
T29EC 001:659.879 JLINK_ReadMem(0x08006F94, 0x3C Bytes, ...)
T29EC 001:659.883   CPU_ReadMem(64 bytes @ 0x08006FC0)
T29EC 001:660.433    -- Updating C cache (64 bytes @ 0x08006FC0)
T29EC 001:660.450    -- Read from C cache (60 bytes @ 0x08006F94)
T29EC 001:660.454   Data:  6D FC 4F F0 FF 30 F7 E7 01 46 C8 68 70 47 00 00 ...
T29EC 001:660.459 - 0.580ms returns 0
T5EF8 001:811.855 JLINK_HasError()
T5EF8 001:811.875 JLINK_SetBPEx(Addr = 0x08002124, Type = 0xFFFFFFF2)
T5EF8 001:811.886 - 0.010ms returns 0x00000006
T5EF8 001:811.890 JLINK_HasError()
T5EF8 001:811.894 JLINK_SetBPEx(Addr = 0x0800703C, Type = 0xFFFFFFF2)
T5EF8 001:811.897 - 0.003ms returns 0x00000007
T5EF8 001:811.901 JLINK_HasError()
T5EF8 001:811.905 JLINK_SetBPEx(Addr = 0x08005658, Type = 0xFFFFFFF2)
T5EF8 001:811.908 - 0.003ms returns 0x00000008
T5EF8 001:811.911 JLINK_HasError()
T5EF8 001:811.915 JLINK_SetBPEx(Addr = 0x08004712, Type = 0xFFFFFFF2)
T5EF8 001:811.919 - 0.003ms returns 0x00000009
T5EF8 001:811.922 JLINK_HasError()
T5EF8 001:811.926 JLINK_HasError()
T5EF8 001:811.929 JLINK_Go()
T5EF8 001:811.939   CPU_WriteMem(4 bytes @ 0xE0002000)
T5EF8 001:812.274   CPU_WriteMem(4 bytes @ 0xE0002000)
T5EF8 001:812.601   CPU_WriteMem(4 bytes @ 0xE0002000)
T5EF8 001:812.840   CPU_WriteMem(4 bytes @ 0xE0002000)
T5EF8 001:813.108   CPU_ReadMem(4 bytes @ 0xE0001000)
T5EF8 001:813.410   CPU_WriteMem(4 bytes @ 0xE0002008)
T5EF8 001:813.416   CPU_WriteMem(4 bytes @ 0xE000200C)
T5EF8 001:813.420   CPU_WriteMem(4 bytes @ 0xE0002010)
T5EF8 001:813.425   CPU_WriteMem(4 bytes @ 0xE0002014)
T5EF8 001:813.429   CPU_WriteMem(4 bytes @ 0xE0002018)
T5EF8 001:814.572 - 2.642ms
T5EF8 001:915.817 JLINK_HasError()
T5EF8 001:915.840 JLINK_IsHalted()
T5EF8 001:917.966 - 2.125ms returns TRUE
T5EF8 001:917.972 JLINK_HasError()
T5EF8 001:917.976 JLINK_Halt()
T5EF8 001:917.979 - 0.003ms returns 0x00
T5EF8 001:917.983 JLINK_IsHalted()
T5EF8 001:917.986 - 0.002ms returns TRUE
T5EF8 001:917.989 JLINK_IsHalted()
T5EF8 001:917.992 - 0.002ms returns TRUE
T5EF8 001:917.995 JLINK_IsHalted()
T5EF8 001:917.998 - 0.002ms returns TRUE
T5EF8 001:918.002 JLINK_HasError()
T5EF8 001:918.007 JLINK_ReadReg(R15 (PC))
T5EF8 001:918.011 - 0.005ms returns 0x08004712
T5EF8 001:918.015 JLINK_ReadReg(XPSR)
T5EF8 001:918.018 - 0.003ms returns 0x0100002D
T5EF8 001:918.023 JLINK_HasError()
T5EF8 001:918.026 JLINK_ClrBPEx(BPHandle = 0x00000006)
T5EF8 001:918.030 - 0.003ms returns 0x00
T5EF8 001:918.034 JLINK_HasError()
T5EF8 001:918.037 JLINK_ClrBPEx(BPHandle = 0x00000007)
T5EF8 001:918.040 - 0.003ms returns 0x00
T5EF8 001:918.044 JLINK_HasError()
T5EF8 001:918.048 JLINK_ClrBPEx(BPHandle = 0x00000008)
T5EF8 001:918.051 - 0.003ms returns 0x00
T5EF8 001:918.055 JLINK_HasError()
T5EF8 001:918.058 JLINK_ClrBPEx(BPHandle = 0x00000009)
T5EF8 001:918.061 - 0.003ms returns 0x00
T5EF8 001:918.064 JLINK_HasError()
T5EF8 001:918.068 JLINK_HasError()
T5EF8 001:918.072 JLINK_ReadMemU32(0xE000ED30, 0x1 Items)
T5EF8 001:918.081   CPU_ReadMem(4 bytes @ 0xE000ED30)
T5EF8 001:918.448   Data:  02 00 00 00
T5EF8 001:918.453 - 0.380ms returns 1 (0x1)
T5EF8 001:918.457 JLINK_ReadMemU32(0xE0001028, 0x1 Items)
T5EF8 001:918.462   CPU_ReadMem(4 bytes @ 0xE0001028)
T5EF8 001:918.764   Data:  00 00 00 00
T5EF8 001:918.769   Debug reg: DWT_FUNC[0]
T5EF8 001:918.773 - 0.315ms returns 1 (0x1)
T5EF8 001:918.777 JLINK_ReadMemU32(0xE0001038, 0x1 Items)
T5EF8 001:918.781   CPU_ReadMem(4 bytes @ 0xE0001038)
T5EF8 001:919.084   Data:  00 02 00 00
T5EF8 001:919.088   Debug reg: DWT_FUNC[1]
T5EF8 001:919.093 - 0.315ms returns 1 (0x1)
T5EF8 001:919.096 JLINK_ReadMemU32(0xE0001048, 0x1 Items)
T5EF8 001:919.100   CPU_ReadMem(4 bytes @ 0xE0001048)
T5EF8 001:919.409   Data:  00 00 00 00
T5EF8 001:919.414   Debug reg: DWT_FUNC[2]
T5EF8 001:919.418 - 0.321ms returns 1 (0x1)
T5EF8 001:919.422 JLINK_ReadMemU32(0xE0001058, 0x1 Items)
T5EF8 001:919.426   CPU_ReadMem(4 bytes @ 0xE0001058)
T5EF8 001:919.703   Data:  00 00 00 00
T5EF8 001:919.707   Debug reg: DWT_FUNC[3]
T5EF8 001:919.716 - 0.293ms returns 1 (0x1)
T5EF8 001:919.749 JLINK_HasError()
T5EF8 001:919.753 JLINK_ReadReg(R0)
T5EF8 001:919.757 - 0.003ms returns 0x00000001
T5EF8 001:919.760 JLINK_ReadReg(R1)
T5EF8 001:919.764 - 0.003ms returns 0x00000000
T5EF8 001:919.767 JLINK_ReadReg(R2)
T5EF8 001:919.770 - 0.003ms returns 0x00000001
T5EF8 001:919.774 JLINK_ReadReg(R3)
T5EF8 001:919.777 - 0.003ms returns 0x200001F4
T5EF8 001:919.780 JLINK_ReadReg(R4)
T5EF8 001:919.784 - 0.003ms returns 0x00000001
T5EF8 001:919.787 JLINK_ReadReg(R5)
T5EF8 001:919.790 - 0.003ms returns 0x00000001
T5EF8 001:919.794 JLINK_ReadReg(R6)
T5EF8 001:919.797 - 0.003ms returns 0x0000001F
T5EF8 001:919.801 JLINK_ReadReg(R7)
T5EF8 001:919.804 - 0.003ms returns 0x00000000
T5EF8 001:919.807 JLINK_ReadReg(R8)
T5EF8 001:919.811 - 0.003ms returns 0x00000000
T5EF8 001:919.814 JLINK_ReadReg(R9)
T5EF8 001:919.817 - 0.003ms returns 0x00000000
T5EF8 001:919.821 JLINK_ReadReg(R10)
T5EF8 001:919.824 - 0.003ms returns 0x08008860
T5EF8 001:919.827 JLINK_ReadReg(R11)
T5EF8 001:919.830 - 0.003ms returns 0x00000000
T5EF8 001:919.834 JLINK_ReadReg(R12)
T5EF8 001:919.837 - 0.003ms returns 0xFFFFFFFF
T5EF8 001:919.841 JLINK_ReadReg(R13 (SP))
T5EF8 001:919.845 - 0.003ms returns 0x20001808
T5EF8 001:919.848 JLINK_ReadReg(R14)
T5EF8 001:919.851 - 0.003ms returns 0x08004713
T5EF8 001:919.855 JLINK_ReadReg(R15 (PC))
T5EF8 001:919.858 - 0.003ms returns 0x08004712
T5EF8 001:919.861 JLINK_ReadReg(XPSR)
T5EF8 001:919.864 - 0.003ms returns 0x0100002D
T5EF8 001:919.868 JLINK_ReadReg(MSP)
T5EF8 001:919.871 - 0.003ms returns 0x20001808
T5EF8 001:919.875 JLINK_ReadReg(PSP)
T5EF8 001:919.878 - 0.003ms returns 0x00000000
T5EF8 001:919.881 JLINK_ReadReg(CFBP)
T5EF8 001:919.884 - 0.003ms returns 0x04000000
T5EF8 001:919.888 JLINK_ReadReg(FPSCR)
T5EF8 001:922.763 - 2.874ms returns 0x00000010
T5EF8 001:922.774 JLINK_ReadReg(FPS0)
T5EF8 001:922.778 - 0.004ms returns 0x000002BE
T5EF8 001:922.782 JLINK_ReadReg(FPS1)
T5EF8 001:922.785 - 0.003ms returns 0x44870000
T5EF8 001:922.789 JLINK_ReadReg(FPS2)
T5EF8 001:922.792 - 0.003ms returns 0x00000000
T5EF8 001:922.795 JLINK_ReadReg(FPS3)
T5EF8 001:922.799 - 0.003ms returns 0x00000000
T5EF8 001:922.802 JLINK_ReadReg(FPS4)
T5EF8 001:922.805 - 0.003ms returns 0x00000000
T5EF8 001:922.809 JLINK_ReadReg(FPS5)
T5EF8 001:922.812 - 0.003ms returns 0x00000000
T5EF8 001:922.815 JLINK_ReadReg(FPS6)
T5EF8 001:922.819 - 0.003ms returns 0x00000000
T5EF8 001:922.822 JLINK_ReadReg(FPS7)
T5EF8 001:922.825 - 0.003ms returns 0x00000000
T5EF8 001:922.829 JLINK_ReadReg(FPS8)
T5EF8 001:922.832 - 0.003ms returns 0x00000000
T5EF8 001:922.835 JLINK_ReadReg(FPS9)
T5EF8 001:922.839 - 0.003ms returns 0x00000000
T5EF8 001:922.842 JLINK_ReadReg(FPS10)
T5EF8 001:922.845 - 0.003ms returns 0x00000000
T5EF8 001:922.849 JLINK_ReadReg(FPS11)
T5EF8 001:922.852 - 0.003ms returns 0x00000000
T5EF8 001:922.855 JLINK_ReadReg(FPS12)
T5EF8 001:922.858 - 0.003ms returns 0x00000000
T5EF8 001:922.862 JLINK_ReadReg(FPS13)
T5EF8 001:922.865 - 0.003ms returns 0x00000000
T5EF8 001:922.869 JLINK_ReadReg(FPS14)
T5EF8 001:922.872 - 0.003ms returns 0x00000000
T5EF8 001:922.876 JLINK_ReadReg(FPS15)
T5EF8 001:922.879 - 0.003ms returns 0x00000000
T5EF8 001:922.882 JLINK_ReadReg(FPS16)
T5EF8 001:922.885 - 0.003ms returns 0x00000000
T5EF8 001:922.889 JLINK_ReadReg(FPS17)
T5EF8 001:922.892 - 0.003ms returns 0x00000000
T5EF8 001:922.895 JLINK_ReadReg(FPS18)
T5EF8 001:922.899 - 0.003ms returns 0x00000000
T5EF8 001:922.902 JLINK_ReadReg(FPS19)
T5EF8 001:922.905 - 0.003ms returns 0x00000000
T5EF8 001:922.909 JLINK_ReadReg(FPS20)
T5EF8 001:922.912 - 0.003ms returns 0x00000000
T5EF8 001:922.915 JLINK_ReadReg(FPS21)
T5EF8 001:922.918 - 0.003ms returns 0x00000000
T5EF8 001:922.922 JLINK_ReadReg(FPS22)
T5EF8 001:922.925 - 0.003ms returns 0x00000000
T5EF8 001:922.929 JLINK_ReadReg(FPS23)
T5EF8 001:922.932 - 0.003ms returns 0x00000000
T5EF8 001:922.935 JLINK_ReadReg(FPS24)
T5EF8 001:922.938 - 0.003ms returns 0x00000000
T5EF8 001:922.973 JLINK_ReadReg(FPS25)
T5EF8 001:922.977 - 0.004ms returns 0x00000000
T5EF8 001:922.981 JLINK_ReadReg(FPS26)
T5EF8 001:922.984 - 0.003ms returns 0x00000000
T5EF8 001:922.988 JLINK_ReadReg(FPS27)
T5EF8 001:922.991 - 0.003ms returns 0x00000000
T5EF8 001:922.994 JLINK_ReadReg(FPS28)
T5EF8 001:922.997 - 0.003ms returns 0x00000000
T5EF8 001:923.001 JLINK_ReadReg(FPS29)
T5EF8 001:923.004 - 0.003ms returns 0x00000000
T5EF8 001:923.007 JLINK_ReadReg(FPS30)
T5EF8 001:923.011 - 0.003ms returns 0x00000000
T5EF8 001:923.014 JLINK_ReadReg(FPS31)
T5EF8 001:923.017 - 0.003ms returns 0x00000000
T29EC 001:923.151 JLINK_ReadMem(0x2000180C, 0x4 Bytes, ...)
T29EC 001:923.169   CPU_ReadMem(64 bytes @ 0x20001800)
T29EC 001:923.717    -- Updating C cache (64 bytes @ 0x20001800)
T29EC 001:923.722    -- Read from C cache (4 bytes @ 0x2000180C)
T29EC 001:923.726   Data:  59 56 00 08
T29EC 001:923.731 - 0.580ms returns 0
T29EC 001:923.738 JLINK_ReadMem(0x20001808, 0x4 Bytes, ...)
T29EC 001:923.742    -- Read from C cache (4 bytes @ 0x20001808)
T29EC 001:923.746   Data:  A4 03 00 20
T29EC 001:923.750 - 0.012ms returns 0
T29EC 001:923.755 JLINK_ReadMem(0x20001814, 0x4 Bytes, ...)
T29EC 001:923.759    -- Read from C cache (4 bytes @ 0x20001814)
T29EC 001:923.763   Data:  3B 43 00 08
T29EC 001:923.767 - 0.011ms returns 0
T29EC 001:923.879 JLINK_ReadMem(0x20001810, 0x4 Bytes, ...)
T29EC 001:923.885    -- Read from C cache (4 bytes @ 0x20001810)
T29EC 001:923.889   Data:  A4 03 00 20
T29EC 001:923.894 - 0.014ms returns 0
T29EC 001:923.898 JLINK_ReadMem(0x2000181C, 0x4 Bytes, ...)
T29EC 001:923.902    -- Read from C cache (4 bytes @ 0x2000181C)
T29EC 001:923.906   Data:  3D 42 00 08
T29EC 001:923.910 - 0.011ms returns 0
T29EC 001:924.393 JLINK_ReadMem(0x20001818, 0x4 Bytes, ...)
T29EC 001:924.399    -- Read from C cache (4 bytes @ 0x20001818)
T29EC 001:924.403   Data:  A4 03 00 20
T29EC 001:924.408 - 0.014ms returns 0
T29EC 001:924.413 JLINK_ReadMem(0x2000182C, 0x4 Bytes, ...)
T29EC 001:924.416    -- Read from C cache (4 bytes @ 0x2000182C)
T29EC 001:924.420   Data:  ED 50 00 08
T29EC 001:924.425 - 0.011ms returns 0
T29EC 001:924.496 JLINK_ReadMem(0x20001820, 0x4 Bytes, ...)
T29EC 001:924.501    -- Read from C cache (4 bytes @ 0x20001820)
T29EC 001:924.505   Data:  00 00 00 00
T29EC 001:924.510 - 0.013ms returns 0
T29EC 001:924.513 JLINK_ReadMem(0x20001824, 0x4 Bytes, ...)
T29EC 001:924.517    -- Read from C cache (4 bytes @ 0x20001824)
T29EC 001:924.521   Data:  40 12 00 20
T29EC 001:924.525 - 0.011ms returns 0
T29EC 001:924.529 JLINK_ReadMem(0x20001828, 0x4 Bytes, ...)
T29EC 001:924.532    -- Read from C cache (4 bytes @ 0x20001828)
T29EC 001:924.536   Data:  00 00 00 00
T29EC 001:924.540 - 0.011ms returns 0
T29EC 001:924.545 JLINK_ReadMem(0x20001834, 0x4 Bytes, ...)
T29EC 001:924.548    -- Read from C cache (4 bytes @ 0x20001834)
T29EC 001:924.552   Data:  E9 FF FF FF
T29EC 001:924.556 - 0.011ms returns 0
T29EC 001:924.560 JLINK_ReadMem(0x20001850, 0x4 Bytes, ...)
T29EC 001:924.566   CPU_ReadMem(64 bytes @ 0x20001840)
T29EC 001:925.149    -- Updating C cache (64 bytes @ 0x20001840)
T29EC 001:925.156    -- Read from C cache (4 bytes @ 0x20001850)
T29EC 001:925.160   Data:  D8 6F 00 08
T29EC 001:925.164 - 0.604ms returns 0
T29EC 001:925.169 JLINK_ReadMem(0x20001854, 0x4 Bytes, ...)
T29EC 001:925.173    -- Read from C cache (4 bytes @ 0x20001854)
T29EC 001:925.177   Data:  00 00 00 41
T29EC 001:925.181 - 0.012ms returns 0
T29EC 001:925.185 JLINK_ReadMem(0x2000184C, 0x4 Bytes, ...)
T29EC 001:925.188    -- Read from C cache (4 bytes @ 0x2000184C)
T29EC 001:925.192   Data:  D7 6F 00 08
T29EC 001:925.197 - 0.011ms returns 0
T29EC 001:925.200 JLINK_ReadMem(0xE000ED28, 0x4 Bytes, ...)
T29EC 001:925.204   CPU_ReadMem(4 bytes @ 0xE000ED28)
T29EC 001:925.472   Data:  00 00 00 00
T29EC 001:925.476 - 0.276ms returns 0
T29EC 001:925.518 JLINK_ReadMem(0x2000189C, 0x4 Bytes, ...)
T29EC 001:925.522   CPU_ReadMem(64 bytes @ 0x20001880)
T29EC 001:926.064    -- Updating C cache (64 bytes @ 0x20001880)
T29EC 001:926.073    -- Read from C cache (4 bytes @ 0x2000189C)
T29EC 001:926.078   Data:  D1 6F 00 08
T29EC 001:926.082 - 0.564ms returns 0
T29EC 001:926.086 JLINK_ReadMem(0x200018A0, 0x4 Bytes, ...)
T29EC 001:926.090    -- Read from C cache (4 bytes @ 0x200018A0)
T29EC 001:926.094   Data:  00 00 00 03
T29EC 001:926.098 - 0.012ms returns 0
T29EC 001:931.141 JLINK_ReadMem(0x0800470C, 0x3C Bytes, ...)
T29EC 001:931.155   CPU_ReadMem(128 bytes @ 0x08004700)
T29EC 001:931.938    -- Updating C cache (128 bytes @ 0x08004700)
T29EC 001:931.951    -- Read from C cache (60 bytes @ 0x0800470C)
T29EC 001:931.957   Data:  20 46 02 F0 67 FC 10 BD 77 11 00 20 54 0D 00 20 ...
T29EC 001:931.962 - 0.821ms returns 0
T5EF8 003:147.138 JLINK_HasError()
T5EF8 003:147.156 JLINK_Step()
T5EF8 003:147.607    -- Read from C cache (2 bytes @ 0x08004712)
T5EF8 003:147.627   CPU_ReadMem(4 bytes @ 0xE000ED18)
T5EF8 003:148.044   CPU_WriteMem(4 bytes @ 0xE000ED18)
T5EF8 003:148.329   CPU_ReadMem(4 bytes @ 0xE000ED18)
T5EF8 003:148.578   CPU_WriteMem(4 bytes @ 0xE000ED18)
T5EF8 003:148.848   CPU_ReadMem(4 bytes @ 0xE0001004)
T5EF8 003:149.111   -- Not simulated
T5EF8 003:149.124   CPU_WriteMem(4 bytes @ 0xE0002008)
T5EF8 003:149.129   CPU_WriteMem(4 bytes @ 0xE000200C)
T5EF8 003:149.133   CPU_WriteMem(4 bytes @ 0xE0002010)
T5EF8 003:149.138   CPU_WriteMem(4 bytes @ 0xE0002014)
T5EF8 003:151.975 - 4.818ms returns 0
T5EF8 003:151.984 JLINK_HasError()
T5EF8 003:151.989 JLINK_ReadReg(R15 (PC))
T5EF8 003:151.997 - 0.008ms returns 0x08005658
T5EF8 003:152.000 JLINK_ReadReg(XPSR)
T5EF8 003:152.004 - 0.003ms returns 0x0100002D
T5EF8 003:152.049 JLINK_HasError()
T5EF8 003:152.054 JLINK_ReadReg(R0)
T5EF8 003:152.062 - 0.007ms returns 0x00000001
T5EF8 003:152.065 JLINK_ReadReg(R1)
T5EF8 003:152.069 - 0.003ms returns 0x00000000
T5EF8 003:152.072 JLINK_ReadReg(R2)
T5EF8 003:152.075 - 0.003ms returns 0x00000001
T5EF8 003:152.079 JLINK_ReadReg(R3)
T5EF8 003:152.082 - 0.003ms returns 0x200001F4
T5EF8 003:152.086 JLINK_ReadReg(R4)
T5EF8 003:152.090 - 0.003ms returns 0x200003A4
T5EF8 003:152.093 JLINK_ReadReg(R5)
T5EF8 003:152.097 - 0.003ms returns 0x00000001
T5EF8 003:152.100 JLINK_ReadReg(R6)
T5EF8 003:152.104 - 0.003ms returns 0x0000001F
T5EF8 003:152.107 JLINK_ReadReg(R7)
T5EF8 003:152.111 - 0.003ms returns 0x00000000
T5EF8 003:152.114 JLINK_ReadReg(R8)
T5EF8 003:152.118 - 0.003ms returns 0x00000000
T5EF8 003:152.121 JLINK_ReadReg(R9)
T5EF8 003:152.125 - 0.003ms returns 0x00000000
T5EF8 003:152.128 JLINK_ReadReg(R10)
T5EF8 003:152.132 - 0.003ms returns 0x08008860
T5EF8 003:152.135 JLINK_ReadReg(R11)
T5EF8 003:152.138 - 0.003ms returns 0x00000000
T5EF8 003:152.142 JLINK_ReadReg(R12)
T5EF8 003:152.145 - 0.003ms returns 0xFFFFFFFF
T5EF8 003:152.152 JLINK_ReadReg(R13 (SP))
T5EF8 003:152.155 - 0.005ms returns 0x20001810
T5EF8 003:152.159 JLINK_ReadReg(R14)
T5EF8 003:152.162 - 0.003ms returns 0x08004713
T5EF8 003:152.166 JLINK_ReadReg(R15 (PC))
T5EF8 003:152.169 - 0.003ms returns 0x08005658
T5EF8 003:152.175 JLINK_ReadReg(XPSR)
T5EF8 003:152.178 - 0.003ms returns 0x0100002D
T5EF8 003:152.182 JLINK_ReadReg(MSP)
T5EF8 003:152.185 - 0.003ms returns 0x20001810
T5EF8 003:152.189 JLINK_ReadReg(PSP)
T5EF8 003:152.192 - 0.003ms returns 0x00000000
T5EF8 003:152.195 JLINK_ReadReg(CFBP)
T5EF8 003:152.199 - 0.003ms returns 0x04000000
T5EF8 003:152.202 JLINK_ReadReg(FPSCR)
T5EF8 003:155.045 - 2.842ms returns 0x00000010
T5EF8 003:155.056 JLINK_ReadReg(FPS0)
T5EF8 003:155.062 - 0.005ms returns 0x000002BE
T5EF8 003:155.066 JLINK_ReadReg(FPS1)
T5EF8 003:155.069 - 0.003ms returns 0x44870000
T5EF8 003:155.073 JLINK_ReadReg(FPS2)
T5EF8 003:155.076 - 0.003ms returns 0x00000000
T5EF8 003:155.079 JLINK_ReadReg(FPS3)
T5EF8 003:155.083 - 0.003ms returns 0x00000000
T5EF8 003:155.088 JLINK_ReadReg(FPS4)
T5EF8 003:155.091 - 0.003ms returns 0x00000000
T5EF8 003:155.095 JLINK_ReadReg(FPS5)
T5EF8 003:155.098 - 0.003ms returns 0x00000000
T5EF8 003:155.516 JLINK_ReadReg(FPS6)
T5EF8 003:155.534 - 0.018ms returns 0x00000000
T5EF8 003:155.542 JLINK_ReadReg(FPS7)
T5EF8 003:155.546 - 0.003ms returns 0x00000000
T5EF8 003:155.550 JLINK_ReadReg(FPS8)
T5EF8 003:155.554 - 0.003ms returns 0x00000000
T5EF8 003:155.558 JLINK_ReadReg(FPS9)
T5EF8 003:155.562 - 0.003ms returns 0x00000000
T5EF8 003:155.566 JLINK_ReadReg(FPS10)
T5EF8 003:155.569 - 0.003ms returns 0x00000000
T5EF8 003:155.573 JLINK_ReadReg(FPS11)
T5EF8 003:155.577 - 0.003ms returns 0x00000000
T5EF8 003:155.583 JLINK_ReadReg(FPS12)
T5EF8 003:155.587 - 0.003ms returns 0x00000000
T5EF8 003:155.591 JLINK_ReadReg(FPS13)
T5EF8 003:155.594 - 0.003ms returns 0x00000000
T5EF8 003:155.598 JLINK_ReadReg(FPS14)
T5EF8 003:155.602 - 0.003ms returns 0x00000000
T5EF8 003:155.606 JLINK_ReadReg(FPS15)
T5EF8 003:155.610 - 0.003ms returns 0x00000000
T5EF8 003:155.614 JLINK_ReadReg(FPS16)
T5EF8 003:155.617 - 0.003ms returns 0x00000000
T5EF8 003:155.621 JLINK_ReadReg(FPS17)
T5EF8 003:155.625 - 0.003ms returns 0x00000000
T5EF8 003:155.629 JLINK_ReadReg(FPS18)
T5EF8 003:155.632 - 0.003ms returns 0x00000000
T5EF8 003:155.636 JLINK_ReadReg(FPS19)
T5EF8 003:155.640 - 0.004ms returns 0x00000000
T5EF8 003:155.644 JLINK_ReadReg(FPS20)
T5EF8 003:155.648 - 0.003ms returns 0x00000000
T5EF8 003:155.652 JLINK_ReadReg(FPS21)
T5EF8 003:155.656 - 0.003ms returns 0x00000000
T5EF8 003:155.660 JLINK_ReadReg(FPS22)
T5EF8 003:155.663 - 0.003ms returns 0x00000000
T5EF8 003:155.671 JLINK_ReadReg(FPS23)
T5EF8 003:155.675 - 0.007ms returns 0x00000000
T5EF8 003:155.679 JLINK_ReadReg(FPS24)
T5EF8 003:155.683 - 0.003ms returns 0x00000000
T5EF8 003:155.686 JLINK_ReadReg(FPS25)
T5EF8 003:155.690 - 0.003ms returns 0x00000000
T5EF8 003:155.694 JLINK_ReadReg(FPS26)
T5EF8 003:155.698 - 0.003ms returns 0x00000000
T5EF8 003:155.702 JLINK_ReadReg(FPS27)
T5EF8 003:155.721 - 0.019ms returns 0x00000000
T5EF8 003:155.725 JLINK_ReadReg(FPS28)
T5EF8 003:155.728 - 0.003ms returns 0x00000000
T5EF8 003:155.732 JLINK_ReadReg(FPS29)
T5EF8 003:155.736 - 0.003ms returns 0x00000000
T5EF8 003:155.740 JLINK_ReadReg(FPS30)
T5EF8 003:155.743 - 0.003ms returns 0x00000000
T5EF8 003:155.747 JLINK_ReadReg(FPS31)
T5EF8 003:155.751 - 0.003ms returns 0x00000000
T29EC 003:155.874 JLINK_ReadMem(0x20001814, 0x4 Bytes, ...)
T29EC 003:155.891   CPU_ReadMem(64 bytes @ 0x20001800)
T29EC 003:156.527    -- Updating C cache (64 bytes @ 0x20001800)
T29EC 003:156.571    -- Read from C cache (4 bytes @ 0x20001814)
T29EC 003:156.603   Data:  3B 43 00 08
T29EC 003:156.629 - 0.754ms returns 0
T29EC 003:156.666 JLINK_ReadMem(0x20001810, 0x4 Bytes, ...)
T29EC 003:156.698    -- Read from C cache (4 bytes @ 0x20001810)
T29EC 003:156.704   Data:  A4 03 00 20
T29EC 003:156.711 - 0.046ms returns 0
T29EC 003:156.718 JLINK_ReadMem(0x2000181C, 0x4 Bytes, ...)
T29EC 003:156.724    -- Read from C cache (4 bytes @ 0x2000181C)
T29EC 003:156.730   Data:  3D 42 00 08
T29EC 003:156.737 - 0.018ms returns 0
T29EC 003:156.744 JLINK_ReadMem(0x20001818, 0x4 Bytes, ...)
T29EC 003:156.750    -- Read from C cache (4 bytes @ 0x20001818)
T29EC 003:156.756   Data:  A4 03 00 20
T29EC 003:156.763 - 0.018ms returns 0
T29EC 003:156.769 JLINK_ReadMem(0x2000182C, 0x4 Bytes, ...)
T29EC 003:156.774    -- Read from C cache (4 bytes @ 0x2000182C)
T29EC 003:156.781   Data:  ED 50 00 08
T29EC 003:156.788 - 0.018ms returns 0
T29EC 003:156.795 JLINK_ReadMem(0x20001820, 0x4 Bytes, ...)
T29EC 003:156.800    -- Read from C cache (4 bytes @ 0x20001820)
T29EC 003:156.807   Data:  00 00 00 00
T29EC 003:156.813 - 0.018ms returns 0
T29EC 003:156.819 JLINK_ReadMem(0x20001824, 0x4 Bytes, ...)
T29EC 003:156.824    -- Read from C cache (4 bytes @ 0x20001824)
T29EC 003:156.831   Data:  40 12 00 20
T29EC 003:156.837 - 0.018ms returns 0
T29EC 003:156.843 JLINK_ReadMem(0x20001828, 0x4 Bytes, ...)
T29EC 003:156.848    -- Read from C cache (4 bytes @ 0x20001828)
T29EC 003:156.854   Data:  00 00 00 00
T29EC 003:156.861 - 0.018ms returns 0
T29EC 003:156.867 JLINK_ReadMem(0x20001834, 0x4 Bytes, ...)
T29EC 003:156.872    -- Read from C cache (4 bytes @ 0x20001834)
T29EC 003:156.882   Data:  E9 FF FF FF
T29EC 003:156.889 - 0.021ms returns 0
T29EC 003:156.894 JLINK_ReadMem(0x20001850, 0x4 Bytes, ...)
T29EC 003:156.902   CPU_ReadMem(64 bytes @ 0x20001840)
T29EC 003:157.432    -- Updating C cache (64 bytes @ 0x20001840)
T29EC 003:157.440    -- Read from C cache (4 bytes @ 0x20001850)
T29EC 003:157.446   Data:  D8 6F 00 08
T29EC 003:157.452 - 0.557ms returns 0
T29EC 003:157.459 JLINK_ReadMem(0x20001854, 0x4 Bytes, ...)
T29EC 003:157.465    -- Read from C cache (4 bytes @ 0x20001854)
T29EC 003:157.471   Data:  00 00 00 41
T29EC 003:157.477 - 0.017ms returns 0
T29EC 003:157.482 JLINK_ReadMem(0x2000184C, 0x4 Bytes, ...)
T29EC 003:157.487    -- Read from C cache (4 bytes @ 0x2000184C)
T29EC 003:157.492   Data:  D7 6F 00 08
T29EC 003:157.498 - 0.016ms returns 0
T29EC 003:157.503 JLINK_ReadMem(0xE000ED28, 0x4 Bytes, ...)
T29EC 003:157.509   CPU_ReadMem(4 bytes @ 0xE000ED28)
T29EC 003:157.788   Data:  00 00 00 00
T29EC 003:157.797 - 0.294ms returns 0
T29EC 003:157.821 JLINK_ReadMem(0x2000189C, 0x4 Bytes, ...)
T29EC 003:157.829   CPU_ReadMem(64 bytes @ 0x20001880)
T29EC 003:158.332    -- Updating C cache (64 bytes @ 0x20001880)
T29EC 003:158.341    -- Read from C cache (4 bytes @ 0x2000189C)
T29EC 003:158.346   Data:  D1 6F 00 08
T29EC 003:158.351 - 0.530ms returns 0
T29EC 003:158.358 JLINK_ReadMem(0x200018A0, 0x4 Bytes, ...)
T29EC 003:158.364    -- Read from C cache (4 bytes @ 0x200018A0)
T29EC 003:158.369   Data:  00 00 00 03
T29EC 003:158.374 - 0.015ms returns 0
T29EC 003:162.321 JLINK_ReadMem(0x08005650, 0x3C Bytes, ...)
T29EC 003:162.332   CPU_ReadMem(128 bytes @ 0x08005640)
T29EC 003:163.151    -- Updating C cache (128 bytes @ 0x08005640)
T29EC 003:163.161    -- Read from C cache (60 bytes @ 0x08005650)
T29EC 003:163.166   Data:  08 46 00 68 FF F7 12 F8 05 48 00 68 30 B1 6F 23 ...
T29EC 003:163.171 - 0.850ms returns 0
T5EF8 006:169.814 JLINK_HasError()
T5EF8 006:169.834 JLINK_HasError()
T5EF8 006:169.838 JLINK_Go()
T5EF8 006:170.271   CPU_ReadMem(4 bytes @ 0xE0001000)
T5EF8 006:170.951 - 1.112ms
T5EF8 006:271.587 JLINK_HasError()
T5EF8 006:271.605 JLINK_IsHalted()
T5EF8 006:271.941 - 0.335ms returns FALSE
T5EF8 006:372.464 JLINK_HasError()
T5EF8 006:372.497 JLINK_IsHalted()
T5EF8 006:372.770 - 0.273ms returns FALSE
T5EF8 006:472.845 JLINK_HasError()
T5EF8 006:472.867 JLINK_IsHalted()
T5EF8 006:473.244 - 0.376ms returns FALSE
T5EF8 006:573.760 JLINK_HasError()
T5EF8 006:573.782 JLINK_IsHalted()
T5EF8 006:574.224 - 0.441ms returns FALSE
T5EF8 006:674.880 JLINK_HasError()
T5EF8 006:674.897 JLINK_IsHalted()
T5EF8 006:675.308 - 0.411ms returns FALSE
T5EF8 006:775.347 JLINK_HasError()
T5EF8 006:775.360 JLINK_HasError()
T5EF8 006:775.364 JLINK_ReadMemU32(0xE0001004, 0x1 Items)
T5EF8 006:775.378   CPU_ReadMem(4 bytes @ 0xE0001004)
T5EF8 006:775.754   Data:  6A C9 20 06
T5EF8 006:775.759   Debug reg: DWT_CYCCNT
T5EF8 006:775.764 - 0.399ms returns 1 (0x1)
T5EF8 006:777.276 JLINK_IsHalted()
T5EF8 006:777.681 - 0.405ms returns FALSE
T5EF8 006:878.305 JLINK_HasError()
T5EF8 006:878.319 JLINK_IsHalted()
T5EF8 006:878.571 - 0.251ms returns FALSE
T29EC 006:977.257 JLINK_ReadMem(0x20000184, 0x4 Bytes, ...)
T29EC 006:977.288   CPU_ReadMem(4 bytes @ 0x20000184)
T29EC 006:977.645   Data:  00 00 00 00
T29EC 006:977.651 - 0.394ms returns 0
T5EF8 006:979.233 JLINK_HasError()
T5EF8 006:979.245 JLINK_IsHalted()
T5EF8 006:979.540 - 0.295ms returns FALSE
T5EF8 007:079.607 JLINK_HasError()
T5EF8 007:079.623 JLINK_IsHalted()
T5EF8 007:080.049 - 0.426ms returns FALSE
T5EF8 007:180.738 JLINK_HasError()
T5EF8 007:180.757 JLINK_IsHalted()
T5EF8 007:181.077 - 0.319ms returns FALSE
T5EF8 007:281.220 JLINK_HasError()
T5EF8 007:281.241 JLINK_IsHalted()
T5EF8 007:281.596 - 0.354ms returns FALSE
T5EF8 007:382.371 JLINK_HasError()
T5EF8 007:382.387 JLINK_HasError()
T5EF8 007:382.391 JLINK_ReadMemU32(0xE0001004, 0x1 Items)
T5EF8 007:382.408   Data:  6A C9 20 06
T5EF8 007:382.414   Debug reg: DWT_CYCCNT
T5EF8 007:382.422 - 0.031ms returns 1 (0x1)
T5EF8 007:383.358 JLINK_IsHalted()
T5EF8 007:383.670 - 0.311ms returns FALSE
T5EF8 007:484.583 JLINK_HasError()
T5EF8 007:484.630 JLINK_IsHalted()
T5EF8 007:484.959 - 0.329ms returns FALSE
T5EF8 007:585.005 JLINK_HasError()
T5EF8 007:585.025 JLINK_IsHalted()
T5EF8 007:585.404 - 0.378ms returns FALSE
T5EF8 007:685.766 JLINK_HasError()
T5EF8 007:685.786 JLINK_IsHalted()
T5EF8 007:686.219 - 0.432ms returns FALSE
T5EF8 007:787.054 JLINK_HasError()
T5EF8 007:787.078 JLINK_IsHalted()
T5EF8 007:787.515 - 0.436ms returns FALSE
T5EF8 007:888.146 JLINK_HasError()
T5EF8 007:888.165 JLINK_HasError()
T5EF8 007:888.170 JLINK_ReadMemU32(0xE0001004, 0x1 Items)
T5EF8 007:888.187   Data:  6A C9 20 06
T5EF8 007:888.193   Debug reg: DWT_CYCCNT
T5EF8 007:888.197 - 0.027ms returns 1 (0x1)
T5EF8 007:889.223 JLINK_IsHalted()
T5EF8 007:889.674 - 0.448ms returns FALSE
T5EF8 007:990.073 JLINK_HasError()
T5EF8 007:990.096 JLINK_IsHalted()
T5EF8 007:990.420 - 0.331ms returns FALSE
T5EF8 008:090.856 JLINK_HasError()
T5EF8 008:090.881 JLINK_IsHalted()
T5EF8 008:091.260 - 0.376ms returns FALSE
T5EF8 008:191.828 JLINK_HasError()
T5EF8 008:191.850 JLINK_IsHalted()
T5EF8 008:192.247 - 0.396ms returns FALSE
T5EF8 008:292.393 JLINK_HasError()
T5EF8 008:292.409 JLINK_IsHalted()
T5EF8 008:292.811 - 0.401ms returns FALSE
T5EF8 008:393.726 JLINK_HasError()
T5EF8 008:393.781 JLINK_IsHalted()
T5EF8 008:394.270 - 0.488ms returns FALSE
T5EF8 008:494.744 JLINK_HasError()
T5EF8 008:494.758 JLINK_HasError()
T5EF8 008:494.762 JLINK_ReadMemU32(0xE0001004, 0x1 Items)
T5EF8 008:494.776   Data:  6A C9 20 06
T5EF8 008:494.781   Debug reg: DWT_CYCCNT
T5EF8 008:494.785 - 0.023ms returns 1 (0x1)
T5EF8 008:495.727 JLINK_IsHalted()
T5EF8 008:496.056 - 0.329ms returns FALSE
T5EF8 008:596.311 JLINK_HasError()
